
T3ED4 000:334 SEGGER J-Link V4.96d Log File (0000ms, 0276ms total)
T3ED4 000:334 DLL Compiled: Jan 29 2015 11:45:37 (0000ms, 0276ms total)
T3ED4 000:334 Logging started @ 2019-07-28 12:00 (0000ms, 0276ms total)
T3ED4 000:334 JLINK_SetWarnOutHandler(...) (0000ms, 0276ms total)
T3ED4 000:334 JLINK_OpenEx(...)
Firmware: J-Link V9 compiled Sep  1 2016 18:29:50
Hardware: V9.40
S/N: 59400616
Feature(s): RDI, FlashBP, FlashDL, JFlash, GDB  returns O.K. (0266ms, 0542ms total)
T3ED4 000:600 JLINK_SetErrorOutHandler(...) (0000ms, 0542ms total)
T3ED4 000:600 JLINK_ExecCommand("ProjectFile = "E:\水下机器人竞赛\AUH\课程提交\程序\STM32-Uydrosnapper\USER\JLinkSettings.ini"", ...)  returns 0x00 (0038ms, 0580ms total)
T3ED4 000:695 JLINK_ExecCommand("Device = STM32F103VC", ...)Device "STM32F103VC" selected.  returns 0x00 (0007ms, 0587ms total)
T3ED4 000:702 JLINK_ExecCommand("DisableConnectionTimeout", ...)  returns 0x01 (0000ms, 0587ms total)
T3ED4 000:702 JLINK_GetHardwareVersion()  returns 0x16F30 (0000ms, 0587ms total)
T3ED4 000:702 JLINK_GetDLLVersion()  returns 49604 (0000ms, 0587ms total)
T3ED4 000:702 JLINK_GetFirmwareString(...) (0000ms, 0587ms total)
T3ED4 000:714 JLINK_GetDLLVersion()  returns 49604 (0000ms, 0587ms total)
T3ED4 000:714 JLINK_GetCompileDateTime() (0000ms, 0587ms total)
T3ED4 000:718 JLINK_GetFirmwareString(...) (0000ms, 0587ms total)
T3ED4 000:721 JLINK_GetHardwareVersion()  returns 0x16F30 (0000ms, 0587ms total)
T3ED4 000:736 JLINK_TIF_Select(JLINKARM_TIF_SWD)  returns 0x00 (0001ms, 0588ms total)
T3ED4 000:737 JLINK_SetSpeed(5000) (0000ms, 0588ms total)
T3ED4 000:737 JLINK_GetId() >0x108 TIF>Found SWD-DP with ID 0x1BA01477 >0x0D TIF> >0x28 TIF> >0x0D TIF> >0x28 TIF> >0x0D TIF> >0x21 TIF> >0x0D TIF> >0x28 TIF> >0x0D TIF> >0x28 TIF> >0x0D TIF> >0x28 TIF> >0x0D TIF> >0x21 TIF> >0x0D TIF> >0x21 TIF> >0x0D TIF> >0x28 TIF> >0x0D TIF> >0x21 TIF> >0x0D TIF> >0x21 TIF> >0x0D TIF> >0x28 TIF> >0x0D TIF> >0x28 TIF> >0x108 TIF>Found SWD-DP with ID 0x1BA01477 >0x0D TIF> >0x21 TIF> >0x0D TIF> >0x28 TIF> >0x0D TIF> >0x28 TIF> >0x0D TIF> >0x21 TIF> >0x0D TIF> >0x28 TIF>
 >0x0D TIF> >0x21 TIF> >0x0D TIF> >0x21 TIF> >0x0D TIF> >0x21 TIF> >0x0D TIF> >0x21 TIF> >0x0D TIF> >0x28 TIF> >0x0D TIF> >0x28 TIF> >0x0D TIF> >0x21 TIF> >0x0D TIF> >0x28 TIF> >0x0D TIF> >0x28 TIF> >0x0D TIF> >0x28 TIF> >0x0D TIF> >0x21 TIF> >0x0D TIF> >0x21 TIF> >0x0D TIF> >0x28 TIF> >0x0D TIF> >0x21 TIF> >0x0D TIF> >0x21 TIF>Found Cortex-M3 r1p1, Little endian. -- CPU_WriteMem(4 bytes @ 0xE0002000) -- CPU_ReadMem(4 bytes @ 0xE000EDF0) -- CPU_WriteMem(4 bytes @ 0xE000EDF0)
 -- CPU_ReadMem(4 bytes @ 0xE0002000)FPUnit: 6 code (BP) slots and 2 literal slots -- CPU_ReadMem(4 bytes @ 0xE000EDFC) -- CPU_WriteMem(4 bytes @ 0xE000EDFC) -- CPU_ReadMem(4 bytes @ 0xE0001000) -- CPU_WriteMem(4 bytes @ 0xE0001000) -- CPU_ReadMem(4 bytes @ 0xE000ED88) -- CPU_WriteMem(4 bytes @ 0xE000ED88) -- CPU_ReadMem(4 bytes @ 0xE000ED88) -- CPU_WriteMem(4 bytes @ 0xE000ED88) -- CPU_ReadMem(4 bytes @ 0xE00FF010)TPIU fitted. -- CPU_ReadMem(4 bytes @ 0xE00FF014)ETM fitted.
 -- CPU_ReadMem(4 bytes @ 0xE00FF018) >0x0D TIF> >0x21 TIF>  returns 0x1BA01477 (0040ms, 0628ms total)
T3ED4 000:777 JLINK_GetDLLVersion()  returns 49604 (0000ms, 0628ms total)
T3ED4 000:777 JLINK_CORE_GetFound()  returns 0x30000FF (0000ms, 0628ms total)
T3ED4 000:777 JLINK_GetDebugInfo(0x100) -- Value=0xE00FF003  returns 0x00 (0000ms, 0628ms total)
T3ED4 000:780 JLINK_ReadMem (0xE00FF000, 0x0020 Bytes, ...) -- CPU is running -- CPU_ReadMem(32 bytes @ 0xE00FF000) - Data: 03 F0 F0 FF 03 20 F0 FF 03 30 F0 FF 03 10 F0 FF ...  returns 0x00 (0001ms, 0629ms total)
T3ED4 000:781 JLINK_ReadMem (0xE000EFF0, 0x0010 Bytes, ...) -- CPU is running -- CPU_ReadMem(16 bytes @ 0xE000EFF0) - Data: 0D 00 00 00 E0 00 00 00 05 00 00 00 B1 00 00 00  returns 0x00 (0000ms, 0629ms total)
T3ED4 000:781 JLINK_ReadMem (0xE000EFD0, 0x0020 Bytes, ...) -- CPU is running -- CPU_ReadMem(32 bytes @ 0xE000EFD0) - Data: 04 00 00 00 00 00 00 00 00 00 00 00 00 00 00 00 ...  returns 0x00 (0001ms, 0630ms total)
T3ED4 000:782 JLINK_ReadMem (0xE0001FF0, 0x0010 Bytes, ...) -- CPU is running -- CPU_ReadMem(16 bytes @ 0xE0001FF0) - Data: 0D 00 00 00 E0 00 00 00 05 00 00 00 B1 00 00 00  returns 0x00 (0000ms, 0630ms total)
T3ED4 000:782 JLINK_ReadMem (0xE0001FD0, 0x0020 Bytes, ...) -- CPU is running -- CPU_ReadMem(32 bytes @ 0xE0001FD0) - Data: 04 00 00 00 00 00 00 00 00 00 00 00 00 00 00 00 ...  returns 0x00 (0001ms, 0631ms total)
T3ED4 000:783 JLINK_ReadMem (0xE0002FF0, 0x0010 Bytes, ...) -- CPU is running -- CPU_ReadMem(16 bytes @ 0xE0002FF0) - Data: 0D 00 00 00 E0 00 00 00 05 00 00 00 B1 00 00 00  returns 0x00 (0000ms, 0631ms total)
T3ED4 000:783 JLINK_ReadMem (0xE0002FD0, 0x0020 Bytes, ...) -- CPU is running -- CPU_ReadMem(32 bytes @ 0xE0002FD0) - Data: 04 00 00 00 00 00 00 00 00 00 00 00 00 00 00 00 ...  returns 0x00 (0000ms, 0631ms total)
T3ED4 000:783 JLINK_ReadMem (0xE0000FF0, 0x0010 Bytes, ...) -- CPU is running -- CPU_ReadMem(16 bytes @ 0xE0000FF0) - Data: 0D 00 00 00 E0 00 00 00 05 00 00 00 B1 00 00 00  returns 0x00 (0001ms, 0632ms total)
T3ED4 000:784 JLINK_ReadMem (0xE0000FD0, 0x0020 Bytes, ...) -- CPU is running -- CPU_ReadMem(32 bytes @ 0xE0000FD0) - Data: 04 00 00 00 00 00 00 00 00 00 00 00 00 00 00 00 ...  returns 0x00 (0000ms, 0632ms total)
T3ED4 000:784 JLINK_ReadMem (0xE0040FF0, 0x0010 Bytes, ...) -- CPU is running -- CPU_ReadMem(16 bytes @ 0xE0040FF0) - Data: 0D 00 00 00 90 00 00 00 05 00 00 00 B1 00 00 00  returns 0x00 (0001ms, 0633ms total)
T3ED4 000:785 JLINK_ReadMem (0xE0040FD0, 0x0020 Bytes, ...) -- CPU is running -- CPU_ReadMem(32 bytes @ 0xE0040FD0) - Data: 04 00 00 00 00 00 00 00 00 00 00 00 00 00 00 00 ...  returns 0x00 (0000ms, 0633ms total)
T3ED4 000:785 JLINK_ReadMem (0xE0041FF0, 0x0010 Bytes, ...) -- CPU is running -- CPU_ReadMem(16 bytes @ 0xE0041FF0) - Data: 0D 00 00 00 90 00 00 00 05 00 00 00 B1 00 00 00  returns 0x00 (0000ms, 0633ms total)
T3ED4 000:785 JLINK_ReadMem (0xE0041FD0, 0x0020 Bytes, ...) -- CPU is running -- CPU_ReadMem(32 bytes @ 0xE0041FD0) - Data: 04 00 00 00 00 00 00 00 00 00 00 00 00 00 00 00 ...  returns 0x00 (0001ms, 0634ms total)
T3ED4 000:786 JLINK_ReadMemU32(0xE000ED00, 0x0001 Items, ...) -- CPU is running -- CPU_ReadMem(4 bytes @ 0xE000ED00) - Data: 31 C2 1F 41  returns 0x01 (0000ms, 0634ms total)
T3ED4 000:786 JLINK_SetResetType(JLINKARM_RESET_TYPE_NORMAL)  returns JLINKARM_RESET_TYPE_NORMAL (0001ms, 0635ms total)
T3ED4 000:787 JLINK_Reset() -- CPU is running -- CPU_WriteMem(4 bytes @ 0xE000EDF0) -- CPU is running -- CPU_WriteMem(4 bytes @ 0xE000EDFC) >0x35 TIF> -- CPU is running -- CPU_WriteMem(4 bytes @ 0xE000ED0C) -- CPU is running -- CPU_ReadMem(4 bytes @ 0xE000EDF0) -- CPU is running -- CPU_ReadMem(4 bytes @ 0xE000EDF0) -- CPU is running -- CPU_WriteMem(4 bytes @ 0xE000EDF0) -- CPU is running -- CPU_WriteMem(4 bytes @ 0xE000EDFC) -- CPU is running -- CPU_ReadMem(4 bytes @ 0xE000EDF0)
 -- CPU_WriteMem(4 bytes @ 0xE0002000) -- CPU_ReadMem(4 bytes @ 0xE000EDFC) -- CPU_ReadMem(4 bytes @ 0xE0001000) (0015ms, 0650ms total)
T3ED4 000:802 JLINK_Halt()  returns 0x00 (0000ms, 0650ms total)
T3ED4 000:802 JLINK_IsHalted()  returns TRUE (0000ms, 0650ms total)
T3ED4 000:802 JLINK_ReadMemU32(0xE000EDF0, 0x0001 Items, ...) -- CPU_ReadMem(4 bytes @ 0xE000EDF0) - Data: 03 00 03 00  returns 0x01 (0001ms, 0651ms total)
T3ED4 000:803 JLINK_WriteU32(0xE000EDF0, 0xA05F0003) -- CPU_WriteMem(4 bytes @ 0xE000EDF0)  returns 0x00 (0000ms, 0651ms total)
T3ED4 000:803 JLINK_WriteU32(0xE000EDFC, 0x01000000) -- CPU_WriteMem(4 bytes @ 0xE000EDFC)  returns 0x00 (0001ms, 0652ms total)
T3ED4 000:818 JLINK_GetHWStatus(...)  returns 0x00 (0001ms, 0653ms total)
T3ED4 000:830 JLINK_GetNumBPUnits(Type = 0xFFFFFF00)  returns 0x06 (0000ms, 0653ms total)
T3ED4 000:830 JLINK_GetNumBPUnits(Type = 0xF0)  returns 0x2000 (0000ms, 0653ms total)
T3ED4 000:830 JLINK_GetNumWPUnits()  returns 0x04 (0000ms, 0653ms total)
T3ED4 000:841 JLINK_GetSpeed()  returns 0xFA0 (0000ms, 0653ms total)
T3ED4 000:848 JLINK_ReadMemU32(0xE000E004, 0x0001 Items, ...) -- CPU_ReadMem(4 bytes @ 0xE000E004) - Data: 01 00 00 00  returns 0x01 (0001ms, 0654ms total)
T3ED4 000:849 JLINK_ReadMemU32(0xE000E004, 0x0001 Items, ...) -- CPU_ReadMem(4 bytes @ 0xE000E004) - Data: 01 00 00 00  returns 0x01 (0000ms, 0654ms total)
T3ED4 000:849 JLINK_WriteMem(0xE0001000, 0x001C Bytes, ...) - Data: 01 00 00 00 00 00 00 00 00 00 00 00 00 00 00 00 ... -- CPU_WriteMem(28 bytes @ 0xE0001000)  returns 0x1C (0001ms, 0655ms total)
T3ED4 000:850 JLINK_ReadMem (0xE0001000, 0x001C Bytes, ...) -- CPU_ReadMem(28 bytes @ 0xE0001000) - Data: 01 00 00 40 00 00 00 00 00 00 00 00 00 00 00 00 ...  returns 0x00 (0000ms, 0655ms total)
T3ED4 000:850 JLINK_Halt()  returns 0x00 (0001ms, 0656ms total)
T3ED4 000:851 JLINK_IsHalted()  returns TRUE (0000ms, 0656ms total)
T3ED4 000:858 JLINK_WriteMem(0x20000000, 0x0164 Bytes, ...) - Data: 00 BE 0A E0 0D 78 2D 06 68 40 08 24 40 00 00 D3 ... -- CPU_WriteMem(356 bytes @ 0x20000000)  returns 0x164 (0003ms, 0659ms total)
T3ED4 000:861 JLINK_WriteReg(R0, 0x08000000)  returns 0x00 (0000ms, 0659ms total)
T3ED4 000:861 JLINK_WriteReg(R1, 0x007A1200)  returns 0x00 (0000ms, 0659ms total)
T3ED4 000:861 JLINK_WriteReg(R2, 0x00000001)  returns 0x00 (0000ms, 0659ms total)
T3ED4 000:861 JLINK_WriteReg(R3, 0x00000000)  returns 0x00 (0000ms, 0659ms total)
T3ED4 000:861 JLINK_WriteReg(R4, 0x00000000)  returns 0x00 (0000ms, 0659ms total)
T3ED4 000:861 JLINK_WriteReg(R5, 0x00000000)  returns 0x00 (0000ms, 0659ms total)
T3ED4 000:861 JLINK_WriteReg(R6, 0x00000000)  returns 0x00 (0000ms, 0659ms total)
T3ED4 000:861 JLINK_WriteReg(R7, 0x00000000)  returns 0x00 (0000ms, 0659ms total)
T3ED4 000:861 JLINK_WriteReg(R8, 0x00000000)  returns 0x00 (0000ms, 0659ms total)
T3ED4 000:861 JLINK_WriteReg(R9, 0x20000160)  returns 0x00 (0000ms, 0659ms total)
T3ED4 000:861 JLINK_WriteReg(R10, 0x00000000)  returns 0x00 (0000ms, 0659ms total)
T3ED4 000:861 JLINK_WriteReg(R11, 0x00000000)  returns 0x00 (0000ms, 0659ms total)
T3ED4 000:861 JLINK_WriteReg(R12, 0x00000000)  returns 0x00 (0000ms, 0659ms total)
T3ED4 000:861 JLINK_WriteReg(R13 (SP), 0x20001000)  returns 0x00 (0000ms, 0659ms total)
T3ED4 000:861 JLINK_WriteReg(R14, 0x20000001)  returns 0x00 (0000ms, 0659ms total)
T3ED4 000:861 JLINK_WriteReg(R15 (PC), 0x20000038)  returns 0x00 (0000ms, 0659ms total)
T3ED4 000:861 JLINK_WriteReg(XPSR, 0x01000000)  returns 0x00 (0000ms, 0659ms total)
T3ED4 000:861 JLINK_WriteReg(MSP, 0x20001000)  returns 0x00 (0000ms, 0659ms total)
T3ED4 000:861 JLINK_WriteReg(PSP, 0x20001000)  returns 0x00 (0000ms, 0659ms total)
T3ED4 000:861 JLINK_WriteReg(CFBP, 0x00000000)  returns 0x00 (0000ms, 0659ms total)
T3ED4 000:861 JLINK_SetBPEx(Addr = 0x20000000, Type = 0xFFFFFFF2) -- CPU_ReadMem(2 bytes @ 0x20000000)  returns 0x00000001 (0001ms, 0660ms total)
T3ED4 000:862 JLINK_Go() -- CPU_WriteMem(2 bytes @ 0x20000000) -- CPU_WriteMem(4 bytes @ 0xE0002008) -- CPU_WriteMem(4 bytes @ 0xE000200C) -- CPU_WriteMem(4 bytes @ 0xE0002010) -- CPU_WriteMem(4 bytes @ 0xE0002014) -- CPU_WriteMem(4 bytes @ 0xE0002018) -- CPU_WriteMem(4 bytes @ 0xE000201C) -- CPU_WriteMem(4 bytes @ 0xE0001004) (0003ms, 0663ms total)
T3ED4 000:865 JLINK_IsHalted() -- CPU_ReadMem(2 bytes @ 0x20000000)  returns TRUE (0002ms, 0665ms total)
T3ED4 000:867 JLINK_ReadReg(R15 (PC))  returns 0x20000000 (0000ms, 0663ms total)
T3ED4 000:867 JLINK_ClrBPEx(BPHandle = 0x00000001)  returns 0x00 (0000ms, 0663ms total)
T3ED4 000:867 JLINK_ReadReg(R0)  returns 0x00000000 (0000ms, 0663ms total)
T3ED4 000:869 JLINK_WriteReg(R0, 0x08000000)  returns 0x00 (0000ms, 0663ms total)
T3ED4 000:869 JLINK_WriteReg(R1, 0x007A1200)  returns 0x00 (0000ms, 0663ms total)
T3ED4 000:869 JLINK_WriteReg(R2, 0x00000001)  returns 0x00 (0000ms, 0663ms total)
T3ED4 000:869 JLINK_WriteReg(R3, 0x00000000)  returns 0x00 (0000ms, 0663ms total)
T3ED4 000:869 JLINK_WriteReg(R4, 0x00000000)  returns 0x00 (0000ms, 0663ms total)
T3ED4 000:869 JLINK_WriteReg(R5, 0x00000000)  returns 0x00 (0000ms, 0663ms total)
T3ED4 000:869 JLINK_WriteReg(R6, 0x00000000)  returns 0x00 (0000ms, 0663ms total)
T3ED4 000:869 JLINK_WriteReg(R7, 0x00000000)  returns 0x00 (0000ms, 0663ms total)
T3ED4 000:869 JLINK_WriteReg(R8, 0x00000000)  returns 0x00 (0000ms, 0663ms total)
T3ED4 000:869 JLINK_WriteReg(R9, 0x20000160)  returns 0x00 (0000ms, 0663ms total)
T3ED4 000:869 JLINK_WriteReg(R10, 0x00000000)  returns 0x00 (0000ms, 0663ms total)
T3ED4 000:869 JLINK_WriteReg(R11, 0x00000000)  returns 0x00 (0000ms, 0663ms total)
T3ED4 000:869 JLINK_WriteReg(R12, 0x00000000)  returns 0x00 (0000ms, 0663ms total)
T3ED4 000:869 JLINK_WriteReg(R13 (SP), 0x20001000)  returns 0x00 (0000ms, 0663ms total)
T3ED4 000:869 JLINK_WriteReg(R14, 0x20000001)  returns 0x00 (0000ms, 0663ms total)
T3ED4 000:869 JLINK_WriteReg(R15 (PC), 0x2000007C)  returns 0x00 (0000ms, 0663ms total)
T3ED4 000:869 JLINK_WriteReg(XPSR, 0x01000000)  returns 0x00 (0000ms, 0663ms total)
T3ED4 000:869 JLINK_WriteReg(MSP, 0x20001000)  returns 0x00 (0000ms, 0663ms total)
T3ED4 000:869 JLINK_WriteReg(PSP, 0x20001000)  returns 0x00 (0000ms, 0663ms total)
T3ED4 000:869 JLINK_WriteReg(CFBP, 0x00000000)  returns 0x00 (0000ms, 0663ms total)
T3ED4 000:869 JLINK_SetBPEx(Addr = 0x20000000, Type = 0xFFFFFFF2)  returns 0x00000002 (0000ms, 0663ms total)
T3ED4 000:869 JLINK_Go() (0001ms, 0664ms total)
T3ED4 000:870 JLINK_IsHalted()  returns FALSE (0000ms, 0664ms total)
T3ED4 000:957 JLINK_IsHalted() -- CPU_ReadMem(2 bytes @ 0x20000000)  returns TRUE (0002ms, 0666ms total)
T3ED4 000:959 JLINK_ReadReg(R15 (PC))  returns 0x20000000 (0000ms, 0664ms total)
T3ED4 000:959 JLINK_ClrBPEx(BPHandle = 0x00000002)  returns 0x00 (0000ms, 0664ms total)
T3ED4 000:959 JLINK_ReadReg(R0)  returns 0x00000000 (0000ms, 0664ms total)
T3ED4 001:012 JLINK_WriteReg(R0, 0x00000001)  returns 0x00 (0000ms, 0664ms total)
T3ED4 001:012 JLINK_WriteReg(R1, 0x007A1200)  returns 0x00 (0000ms, 0664ms total)
T3ED4 001:012 JLINK_WriteReg(R2, 0x00000001)  returns 0x00 (0000ms, 0664ms total)
T3ED4 001:012 JLINK_WriteReg(R3, 0x00000000)  returns 0x00 (0000ms, 0664ms total)
T3ED4 001:012 JLINK_WriteReg(R4, 0x00000000)  returns 0x00 (0000ms, 0664ms total)
T3ED4 001:012 JLINK_WriteReg(R5, 0x00000000)  returns 0x00 (0000ms, 0664ms total)
T3ED4 001:012 JLINK_WriteReg(R6, 0x00000000)  returns 0x00 (0000ms, 0664ms total)
T3ED4 001:012 JLINK_WriteReg(R7, 0x00000000)  returns 0x00 (0000ms, 0664ms total)
T3ED4 001:012 JLINK_WriteReg(R8, 0x00000000)  returns 0x00 (0000ms, 0664ms total)
T3ED4 001:012 JLINK_WriteReg(R9, 0x20000160)  returns 0x00 (0000ms, 0664ms total)
T3ED4 001:012 JLINK_WriteReg(R10, 0x00000000)  returns 0x00 (0000ms, 0664ms total)
T3ED4 001:012 JLINK_WriteReg(R11, 0x00000000)  returns 0x00 (0000ms, 0664ms total)
T3ED4 001:012 JLINK_WriteReg(R12, 0x00000000)  returns 0x00 (0000ms, 0664ms total)
T3ED4 001:012 JLINK_WriteReg(R13 (SP), 0x20001000)  returns 0x00 (0001ms, 0665ms total)
T3ED4 001:013 JLINK_WriteReg(R14, 0x20000001)  returns 0x00 (0000ms, 0665ms total)
T3ED4 001:013 JLINK_WriteReg(R15 (PC), 0x2000006A)  returns 0x00 (0000ms, 0665ms total)
T3ED4 001:013 JLINK_WriteReg(XPSR, 0x01000000)  returns 0x00 (0000ms, 0665ms total)
T3ED4 001:013 JLINK_WriteReg(MSP, 0x20001000)  returns 0x00 (0000ms, 0665ms total)
T3ED4 001:013 JLINK_WriteReg(PSP, 0x20001000)  returns 0x00 (0000ms, 0665ms total)
T3ED4 001:013 JLINK_WriteReg(CFBP, 0x00000000)  returns 0x00 (0000ms, 0665ms total)
T3ED4 001:013 JLINK_SetBPEx(Addr = 0x20000000, Type = 0xFFFFFFF2)  returns 0x00000003 (0000ms, 0665ms total)
T3ED4 001:013 JLINK_Go() (0001ms, 0666ms total)
T3ED4 001:014 JLINK_IsHalted() -- CPU_ReadMem(2 bytes @ 0x20000000)  returns TRUE (0002ms, 0668ms total)
T3ED4 001:016 JLINK_ReadReg(R15 (PC))  returns 0x20000000 (0000ms, 0666ms total)
T3ED4 001:016 JLINK_ClrBPEx(BPHandle = 0x00000003)  returns 0x00 (0000ms, 0666ms total)
T3ED4 001:016 JLINK_ReadReg(R0)  returns 0x00000000 (0000ms, 0666ms total)
T3ED4 001:023 JLINK_WriteMem(0x20000000, 0x0164 Bytes, ...) - Data: 00 BE 0A E0 0D 78 2D 06 68 40 08 24 40 00 00 D3 ... -- CPU_WriteMem(356 bytes @ 0x20000000)  returns 0x164 (0002ms, 0668ms total)
T3ED4 001:025 JLINK_WriteReg(R0, 0x08000000)  returns 0x00 (0000ms, 0668ms total)
T3ED4 001:025 JLINK_WriteReg(R1, 0x007A1200)  returns 0x00 (0000ms, 0668ms total)
T3ED4 001:025 JLINK_WriteReg(R2, 0x00000002)  returns 0x00 (0000ms, 0668ms total)
T3ED4 001:025 JLINK_WriteReg(R3, 0x00000000)  returns 0x00 (0000ms, 0668ms total)
T3ED4 001:025 JLINK_WriteReg(R4, 0x00000000)  returns 0x00 (0000ms, 0668ms total)
T3ED4 001:025 JLINK_WriteReg(R5, 0x00000000)  returns 0x00 (0000ms, 0668ms total)
T3ED4 001:025 JLINK_WriteReg(R6, 0x00000000)  returns 0x00 (0000ms, 0668ms total)
T3ED4 001:026 JLINK_WriteReg(R7, 0x00000000)  returns 0x00 (0000ms, 0669ms total)
T3ED4 001:026 JLINK_WriteReg(R8, 0x00000000)  returns 0x00 (0000ms, 0669ms total)
T3ED4 001:026 JLINK_WriteReg(R9, 0x20000160)  returns 0x00 (0000ms, 0669ms total)
T3ED4 001:026 JLINK_WriteReg(R10, 0x00000000)  returns 0x00 (0000ms, 0669ms total)
T3ED4 001:026 JLINK_WriteReg(R11, 0x00000000)  returns 0x00 (0000ms, 0669ms total)
T3ED4 001:026 JLINK_WriteReg(R12, 0x00000000)  returns 0x00 (0000ms, 0669ms total)
T3ED4 001:026 JLINK_WriteReg(R13 (SP), 0x20001000)  returns 0x00 (0000ms, 0669ms total)
T3ED4 001:026 JLINK_WriteReg(R14, 0x20000001)  returns 0x00 (0000ms, 0669ms total)
T3ED4 001:026 JLINK_WriteReg(R15 (PC), 0x20000038)  returns 0x00 (0000ms, 0669ms total)
T3ED4 001:026 JLINK_WriteReg(XPSR, 0x01000000)  returns 0x00 (0000ms, 0669ms total)
T3ED4 001:026 JLINK_WriteReg(MSP, 0x20001000)  returns 0x00 (0000ms, 0669ms total)
T3ED4 001:026 JLINK_WriteReg(PSP, 0x20001000)  returns 0x00 (0000ms, 0669ms total)
T3ED4 001:026 JLINK_WriteReg(CFBP, 0x00000000)  returns 0x00 (0000ms, 0669ms total)
T3ED4 001:026 JLINK_SetBPEx(Addr = 0x20000000, Type = 0xFFFFFFF2) -- CPU_ReadMem(2 bytes @ 0x20000000)  returns 0x00000004 (0000ms, 0669ms total)
T3ED4 001:026 JLINK_Go() -- CPU_WriteMem(2 bytes @ 0x20000000) (0002ms, 0671ms total)
T3ED4 001:028 JLINK_IsHalted() -- CPU_ReadMem(2 bytes @ 0x20000000)  returns TRUE (0003ms, 0674ms total)
T3ED4 001:031 JLINK_ReadReg(R15 (PC))  returns 0x20000000 (0000ms, 0671ms total)
T3ED4 001:031 JLINK_ClrBPEx(BPHandle = 0x00000004)  returns 0x00 (0000ms, 0671ms total)
T3ED4 001:031 JLINK_ReadReg(R0)  returns 0x00000000 (0000ms, 0671ms total)
T3ED4 001:031 JLINK_WriteMem(0x20000164, 0x0400 Bytes, ...) - Data: 98 0A 00 20 35 19 00 08 E5 04 00 08 E7 04 00 08 ... -- CPU_WriteMem(1024 bytes @ 0x20000164)  returns 0x400 (0004ms, 0675ms total)
T3ED4 001:035 JLINK_WriteReg(R0, 0x08000000)  returns 0x00 (0000ms, 0675ms total)
T3ED4 001:035 JLINK_WriteReg(R1, 0x00000400)  returns 0x00 (0000ms, 0675ms total)
T3ED4 001:035 JLINK_WriteReg(R2, 0x20000164)  returns 0x00 (0000ms, 0675ms total)
T3ED4 001:035 JLINK_WriteReg(R3, 0x00000000)  returns 0x00 (0000ms, 0675ms total)
T3ED4 001:035 JLINK_WriteReg(R4, 0x00000000)  returns 0x00 (0000ms, 0675ms total)
T3ED4 001:035 JLINK_WriteReg(R5, 0x00000000)  returns 0x00 (0000ms, 0675ms total)
T3ED4 001:035 JLINK_WriteReg(R6, 0x00000000)  returns 0x00 (0001ms, 0676ms total)
T3ED4 001:036 JLINK_WriteReg(R7, 0x00000000)  returns 0x00 (0000ms, 0676ms total)
T3ED4 001:036 JLINK_WriteReg(R8, 0x00000000)  returns 0x00 (0000ms, 0676ms total)
T3ED4 001:036 JLINK_WriteReg(R9, 0x20000160)  returns 0x00 (0000ms, 0676ms total)
T3ED4 001:036 JLINK_WriteReg(R10, 0x00000000)  returns 0x00 (0000ms, 0676ms total)
T3ED4 001:036 JLINK_WriteReg(R11, 0x00000000)  returns 0x00 (0000ms, 0676ms total)
T3ED4 001:036 JLINK_WriteReg(R12, 0x00000000)  returns 0x00 (0000ms, 0676ms total)
T3ED4 001:036 JLINK_WriteReg(R13 (SP), 0x20001000)  returns 0x00 (0000ms, 0676ms total)
T3ED4 001:036 JLINK_WriteReg(R14, 0x20000001)  returns 0x00 (0000ms, 0676ms total)
T3ED4 001:036 JLINK_WriteReg(R15 (PC), 0x200000F4)  returns 0x00 (0000ms, 0676ms total)
T3ED4 001:036 JLINK_WriteReg(XPSR, 0x01000000)  returns 0x00 (0000ms, 0676ms total)
T3ED4 001:036 JLINK_WriteReg(MSP, 0x20001000)  returns 0x00 (0000ms, 0676ms total)
T3ED4 001:036 JLINK_WriteReg(PSP, 0x20001000)  returns 0x00 (0000ms, 0676ms total)
T3ED4 001:036 JLINK_WriteReg(CFBP, 0x00000000)  returns 0x00 (0000ms, 0676ms total)
T3ED4 001:036 JLINK_SetBPEx(Addr = 0x20000000, Type = 0xFFFFFFF2)  returns 0x00000005 (0000ms, 0676ms total)
T3ED4 001:036 JLINK_Go() (0001ms, 0677ms total)
T3ED4 001:037 JLINK_IsHalted()  returns FALSE (0001ms, 0678ms total)
T3ED4 001:061 JLINK_IsHalted()  returns FALSE (0000ms, 0677ms total)
T3ED4 001:063 JLINK_IsHalted()  returns FALSE (0000ms, 0677ms total)
T3ED4 001:065 JLINK_IsHalted()  returns FALSE (0000ms, 0677ms total)
T3ED4 001:068 JLINK_IsHalted()  returns FALSE (0000ms, 0677ms total)
T3ED4 001:070 JLINK_IsHalted() -- CPU_ReadMem(2 bytes @ 0x20000000)  returns TRUE (0002ms, 0679ms total)
T3ED4 001:072 JLINK_ReadReg(R15 (PC))  returns 0x20000000 (0000ms, 0677ms total)
T3ED4 001:072 JLINK_ClrBPEx(BPHandle = 0x00000005)  returns 0x00 (0000ms, 0677ms total)
T3ED4 001:072 JLINK_ReadReg(R0)  returns 0x00000000 (0000ms, 0677ms total)
T3ED4 001:073 JLINK_WriteMem(0x20000164, 0x0400 Bytes, ...) - Data: 00 20 2E 49 08 60 34 48 01 68 34 48 00 68 04 F0 ... -- CPU_WriteMem(1024 bytes @ 0x20000164)  returns 0x400 (0004ms, 0681ms total)
T3ED4 001:077 JLINK_WriteReg(R0, 0x08000400)  returns 0x00 (0000ms, 0681ms total)
T3ED4 001:077 JLINK_WriteReg(R1, 0x00000400)  returns 0x00 (0000ms, 0681ms total)
T3ED4 001:077 JLINK_WriteReg(R2, 0x20000164)  returns 0x00 (0000ms, 0681ms total)
T3ED4 001:077 JLINK_WriteReg(R3, 0x00000000)  returns 0x00 (0000ms, 0681ms total)
T3ED4 001:077 JLINK_WriteReg(R4, 0x00000000)  returns 0x00 (0000ms, 0681ms total)
T3ED4 001:077 JLINK_WriteReg(R5, 0x00000000)  returns 0x00 (0000ms, 0681ms total)
T3ED4 001:077 JLINK_WriteReg(R6, 0x00000000)  returns 0x00 (0000ms, 0681ms total)
T3ED4 001:077 JLINK_WriteReg(R7, 0x00000000)  returns 0x00 (0000ms, 0681ms total)
T3ED4 001:077 JLINK_WriteReg(R8, 0x00000000)  returns 0x00 (0000ms, 0681ms total)
T3ED4 001:077 JLINK_WriteReg(R9, 0x20000160)  returns 0x00 (0000ms, 0681ms total)
T3ED4 001:077 JLINK_WriteReg(R10, 0x00000000)  returns 0x00 (0000ms, 0681ms total)
T3ED4 001:077 JLINK_WriteReg(R11, 0x00000000)  returns 0x00 (0000ms, 0681ms total)
T3ED4 001:077 JLINK_WriteReg(R12, 0x00000000)  returns 0x00 (0000ms, 0681ms total)
T3ED4 001:077 JLINK_WriteReg(R13 (SP), 0x20001000)  returns 0x00 (0000ms, 0681ms total)
T3ED4 001:077 JLINK_WriteReg(R14, 0x20000001)  returns 0x00 (0000ms, 0681ms total)
T3ED4 001:077 JLINK_WriteReg(R15 (PC), 0x200000F4)  returns 0x00 (0000ms, 0681ms total)
T3ED4 001:077 JLINK_WriteReg(XPSR, 0x01000000)  returns 0x00 (0000ms, 0681ms total)
T3ED4 001:078 JLINK_WriteReg(MSP, 0x20001000)  returns 0x00 (0000ms, 0681ms total)
T3ED4 001:078 JLINK_WriteReg(PSP, 0x20001000)  returns 0x00 (0000ms, 0681ms total)
T3ED4 001:078 JLINK_WriteReg(CFBP, 0x00000000)  returns 0x00 (0000ms, 0681ms total)
T3ED4 001:078 JLINK_SetBPEx(Addr = 0x20000000, Type = 0xFFFFFFF2)  returns 0x00000006 (0000ms, 0681ms total)
T3ED4 001:078 JLINK_Go() (0001ms, 0682ms total)
T3ED4 001:079 JLINK_IsHalted()  returns FALSE (0000ms, 0682ms total)
T3ED4 001:083 JLINK_IsHalted()  returns FALSE (0000ms, 0683ms total)
T3ED4 001:085 JLINK_IsHalted()  returns FALSE (0000ms, 0683ms total)
T3ED4 001:087 JLINK_IsHalted()  returns FALSE (0000ms, 0683ms total)
T3ED4 001:089 JLINK_IsHalted()  returns FALSE (0000ms, 0683ms total)
T3ED4 001:091 JLINK_IsHalted()  returns FALSE (0000ms, 0683ms total)
T3ED4 001:093 JLINK_IsHalted()  returns FALSE (0000ms, 0683ms total)
T3ED4 001:095 JLINK_IsHalted()  returns FALSE (0000ms, 0683ms total)
T3ED4 001:097 JLINK_IsHalted()  returns FALSE (0000ms, 0683ms total)
T3ED4 001:099 JLINK_IsHalted()  returns FALSE (0000ms, 0683ms total)
T3ED4 001:101 JLINK_IsHalted()  returns FALSE (0000ms, 0683ms total)
T3ED4 001:104 JLINK_IsHalted()  returns FALSE (0000ms, 0683ms total)
T3ED4 001:106 JLINK_IsHalted()  returns FALSE (0000ms, 0683ms total)
T3ED4 001:108 JLINK_IsHalted()  returns FALSE (0000ms, 0683ms total)
T3ED4 001:110 JLINK_IsHalted()  returns FALSE (0000ms, 0683ms total)
T3ED4 001:112 JLINK_IsHalted() -- CPU_ReadMem(2 bytes @ 0x20000000)  returns TRUE (0002ms, 0685ms total)
T3ED4 001:114 JLINK_ReadReg(R15 (PC))  returns 0x20000000 (0000ms, 0683ms total)
T3ED4 001:114 JLINK_ClrBPEx(BPHandle = 0x00000006)  returns 0x00 (0000ms, 0683ms total)
T3ED4 001:114 JLINK_ReadReg(R0)  returns 0x00000000 (0000ms, 0683ms total)
T3ED4 001:115 JLINK_WriteMem(0x20000164, 0x0400 Bytes, ...) - Data: 00 2A F5 D0 4F F0 E0 22 12 69 22 F0 01 02 4F F0 ... -- CPU_WriteMem(1024 bytes @ 0x20000164)  returns 0x400 (0004ms, 0687ms total)
T3ED4 001:119 JLINK_WriteReg(R0, 0x08000800)  returns 0x00 (0000ms, 0687ms total)
T3ED4 001:119 JLINK_WriteReg(R1, 0x00000400)  returns 0x00 (0000ms, 0687ms total)
T3ED4 001:119 JLINK_WriteReg(R2, 0x20000164)  returns 0x00 (0000ms, 0687ms total)
T3ED4 001:119 JLINK_WriteReg(R3, 0x00000000)  returns 0x00 (0000ms, 0687ms total)
T3ED4 001:119 JLINK_WriteReg(R4, 0x00000000)  returns 0x00 (0000ms, 0687ms total)
T3ED4 001:119 JLINK_WriteReg(R5, 0x00000000)  returns 0x00 (0000ms, 0687ms total)
T3ED4 001:119 JLINK_WriteReg(R6, 0x00000000)  returns 0x00 (0000ms, 0687ms total)
T3ED4 001:119 JLINK_WriteReg(R7, 0x00000000)  returns 0x00 (0000ms, 0687ms total)
T3ED4 001:119 JLINK_WriteReg(R8, 0x00000000)  returns 0x00 (0000ms, 0687ms total)
T3ED4 001:119 JLINK_WriteReg(R9, 0x20000160)  returns 0x00 (0000ms, 0687ms total)
T3ED4 001:119 JLINK_WriteReg(R10, 0x00000000)  returns 0x00 (0000ms, 0687ms total)
T3ED4 001:119 JLINK_WriteReg(R11, 0x00000000)  returns 0x00 (0000ms, 0687ms total)
T3ED4 001:119 JLINK_WriteReg(R12, 0x00000000)  returns 0x00 (0000ms, 0687ms total)
T3ED4 001:119 JLINK_WriteReg(R13 (SP), 0x20001000)  returns 0x00 (0000ms, 0687ms total)
T3ED4 001:119 JLINK_WriteReg(R14, 0x20000001)  returns 0x00 (0001ms, 0688ms total)
T3ED4 001:120 JLINK_WriteReg(R15 (PC), 0x200000F4)  returns 0x00 (0000ms, 0688ms total)
T3ED4 001:120 JLINK_WriteReg(XPSR, 0x01000000)  returns 0x00 (0000ms, 0688ms total)
T3ED4 001:120 JLINK_WriteReg(MSP, 0x20001000)  returns 0x00 (0000ms, 0688ms total)
T3ED4 001:120 JLINK_WriteReg(PSP, 0x20001000)  returns 0x00 (0000ms, 0688ms total)
T3ED4 001:120 JLINK_WriteReg(CFBP, 0x00000000)  returns 0x00 (0000ms, 0688ms total)
T3ED4 001:120 JLINK_SetBPEx(Addr = 0x20000000, Type = 0xFFFFFFF2)  returns 0x00000007 (0000ms, 0688ms total)
T3ED4 001:120 JLINK_Go() (0001ms, 0689ms total)
T3ED4 001:121 JLINK_IsHalted()  returns FALSE (0000ms, 0689ms total)
T3ED4 001:125 JLINK_IsHalted()  returns FALSE (0000ms, 0689ms total)
T3ED4 001:127 JLINK_IsHalted()  returns FALSE (0000ms, 0689ms total)
T3ED4 001:129 JLINK_IsHalted()  returns FALSE (0000ms, 0689ms total)
T3ED4 001:131 JLINK_IsHalted()  returns FALSE (0000ms, 0689ms total)
T3ED4 001:133 JLINK_IsHalted()  returns FALSE (0000ms, 0689ms total)
T3ED4 001:135 JLINK_IsHalted()  returns FALSE (0000ms, 0689ms total)
T3ED4 001:137 JLINK_IsHalted()  returns FALSE (0000ms, 0689ms total)
T3ED4 001:139 JLINK_IsHalted()  returns FALSE (0000ms, 0689ms total)
T3ED4 001:141 JLINK_IsHalted()  returns FALSE (0000ms, 0689ms total)
T3ED4 001:143 JLINK_IsHalted()  returns FALSE (0000ms, 0689ms total)
T3ED4 001:153 JLINK_IsHalted() -- CPU_ReadMem(2 bytes @ 0x20000000)  returns TRUE (0002ms, 0691ms total)
T3ED4 001:155 JLINK_ReadReg(R15 (PC))  returns 0x20000000 (0000ms, 0689ms total)
T3ED4 001:155 JLINK_ClrBPEx(BPHandle = 0x00000007)  returns 0x00 (0000ms, 0689ms total)
T3ED4 001:155 JLINK_ReadReg(R0)  returns 0x00000000 (0000ms, 0689ms total)
T3ED4 001:156 JLINK_WriteMem(0x20000164, 0x0400 Bytes, ...) - Data: 06 F0 B2 F8 2C 49 48 60 29 48 00 68 06 F0 60 F8 ... -- CPU_WriteMem(1024 bytes @ 0x20000164)  returns 0x400 (0004ms, 0693ms total)
T3ED4 001:160 JLINK_WriteReg(R0, 0x08000C00)  returns 0x00 (0000ms, 0693ms total)
T3ED4 001:160 JLINK_WriteReg(R1, 0x00000400)  returns 0x00 (0000ms, 0693ms total)
T3ED4 001:160 JLINK_WriteReg(R2, 0x20000164)  returns 0x00 (0000ms, 0693ms total)
T3ED4 001:160 JLINK_WriteReg(R3, 0x00000000)  returns 0x00 (0000ms, 0693ms total)
T3ED4 001:160 JLINK_WriteReg(R4, 0x00000000)  returns 0x00 (0000ms, 0693ms total)
T3ED4 001:160 JLINK_WriteReg(R5, 0x00000000)  returns 0x00 (0000ms, 0693ms total)
T3ED4 001:160 JLINK_WriteReg(R6, 0x00000000)  returns 0x00 (0000ms, 0693ms total)
T3ED4 001:160 JLINK_WriteReg(R7, 0x00000000)  returns 0x00 (0000ms, 0693ms total)
T3ED4 001:160 JLINK_WriteReg(R8, 0x00000000)  returns 0x00 (0000ms, 0693ms total)
T3ED4 001:160 JLINK_WriteReg(R9, 0x20000160)  returns 0x00 (0000ms, 0693ms total)
T3ED4 001:160 JLINK_WriteReg(R10, 0x00000000)  returns 0x00 (0000ms, 0693ms total)
T3ED4 001:160 JLINK_WriteReg(R11, 0x00000000)  returns 0x00 (0000ms, 0693ms total)
T3ED4 001:160 JLINK_WriteReg(R12, 0x00000000)  returns 0x00 (0000ms, 0693ms total)
T3ED4 001:160 JLINK_WriteReg(R13 (SP), 0x20001000)  returns 0x00 (0000ms, 0693ms total)
T3ED4 001:160 JLINK_WriteReg(R14, 0x20000001)  returns 0x00 (0000ms, 0693ms total)
T3ED4 001:160 JLINK_WriteReg(R15 (PC), 0x200000F4)  returns 0x00 (0000ms, 0693ms total)
T3ED4 001:160 JLINK_WriteReg(XPSR, 0x01000000)  returns 0x00 (0000ms, 0693ms total)
T3ED4 001:160 JLINK_WriteReg(MSP, 0x20001000)  returns 0x00 (0000ms, 0693ms total)
T3ED4 001:160 JLINK_WriteReg(PSP, 0x20001000)  returns 0x00 (0000ms, 0693ms total)
T3ED4 001:160 JLINK_WriteReg(CFBP, 0x00000000)  returns 0x00 (0000ms, 0693ms total)
T3ED4 001:160 JLINK_SetBPEx(Addr = 0x20000000, Type = 0xFFFFFFF2)  returns 0x00000008 (0000ms, 0693ms total)
T3ED4 001:160 JLINK_Go() (0002ms, 0695ms total)
T3ED4 001:162 JLINK_IsHalted()  returns FALSE (0000ms, 0695ms total)
T3ED4 001:166 JLINK_IsHalted()  returns FALSE (0000ms, 0695ms total)
T3ED4 001:168 JLINK_IsHalted()  returns FALSE (0000ms, 0695ms total)
T3ED4 001:170 JLINK_IsHalted()  returns FALSE (0000ms, 0695ms total)
T3ED4 001:172 JLINK_IsHalted()  returns FALSE (0000ms, 0695ms total)
T3ED4 001:174 JLINK_IsHalted()  returns FALSE (0000ms, 0695ms total)
T3ED4 001:176 JLINK_IsHalted()  returns FALSE (0000ms, 0695ms total)
T3ED4 001:178 JLINK_IsHalted()  returns FALSE (0000ms, 0695ms total)
T3ED4 001:180 JLINK_IsHalted()  returns FALSE (0000ms, 0695ms total)
T3ED4 001:183 JLINK_IsHalted()  returns FALSE (0000ms, 0695ms total)
T3ED4 001:185 JLINK_IsHalted()  returns FALSE (0000ms, 0695ms total)
T3ED4 001:187 JLINK_IsHalted()  returns FALSE (0000ms, 0695ms total)
T3ED4 001:189 JLINK_IsHalted()  returns FALSE (0000ms, 0695ms total)
T3ED4 001:191 JLINK_IsHalted()  returns FALSE (0000ms, 0695ms total)
T3ED4 001:195 JLINK_IsHalted() -- CPU_ReadMem(2 bytes @ 0x20000000)  returns TRUE (0002ms, 0697ms total)
T3ED4 001:197 JLINK_ReadReg(R15 (PC))  returns 0x20000000 (0000ms, 0695ms total)
T3ED4 001:197 JLINK_ClrBPEx(BPHandle = 0x00000008)  returns 0x00 (0000ms, 0695ms total)
T3ED4 001:197 JLINK_ReadReg(R0)  returns 0x00000000 (0000ms, 0695ms total)
T3ED4 001:198 JLINK_WriteMem(0x20000164, 0x0400 Bytes, ...) - Data: 30 39 02 FB 01 01 35 48 00 7D 30 38 08 44 55 49 ... -- CPU_WriteMem(1024 bytes @ 0x20000164)  returns 0x400 (0004ms, 0699ms total)
T3ED4 001:202 JLINK_WriteReg(R0, 0x08001000)  returns 0x00 (0000ms, 0699ms total)
T3ED4 001:202 JLINK_WriteReg(R1, 0x00000400)  returns 0x00 (0000ms, 0699ms total)
T3ED4 001:202 JLINK_WriteReg(R2, 0x20000164)  returns 0x00 (0000ms, 0699ms total)
T3ED4 001:202 JLINK_WriteReg(R3, 0x00000000)  returns 0x00 (0000ms, 0699ms total)
T3ED4 001:202 JLINK_WriteReg(R4, 0x00000000)  returns 0x00 (0000ms, 0699ms total)
T3ED4 001:202 JLINK_WriteReg(R5, 0x00000000)  returns 0x00 (0000ms, 0699ms total)
T3ED4 001:202 JLINK_WriteReg(R6, 0x00000000)  returns 0x00 (0000ms, 0699ms total)
T3ED4 001:202 JLINK_WriteReg(R7, 0x00000000)  returns 0x00 (0000ms, 0699ms total)
T3ED4 001:202 JLINK_WriteReg(R8, 0x00000000)  returns 0x00 (0000ms, 0699ms total)
T3ED4 001:202 JLINK_WriteReg(R9, 0x20000160)  returns 0x00 (0000ms, 0699ms total)
T3ED4 001:202 JLINK_WriteReg(R10, 0x00000000)  returns 0x00 (0000ms, 0699ms total)
T3ED4 001:202 JLINK_WriteReg(R11, 0x00000000)  returns 0x00 (0000ms, 0699ms total)
T3ED4 001:202 JLINK_WriteReg(R12, 0x00000000)  returns 0x00 (0000ms, 0699ms total)
T3ED4 001:202 JLINK_WriteReg(R13 (SP), 0x20001000)  returns 0x00 (0000ms, 0699ms total)
T3ED4 001:202 JLINK_WriteReg(R14, 0x20000001)  returns 0x00 (0000ms, 0699ms total)
T3ED4 001:202 JLINK_WriteReg(R15 (PC), 0x200000F4)  returns 0x00 (0001ms, 0700ms total)
T3ED4 001:203 JLINK_WriteReg(XPSR, 0x01000000)  returns 0x00 (0000ms, 0700ms total)
T3ED4 001:203 JLINK_WriteReg(MSP, 0x20001000)  returns 0x00 (0000ms, 0700ms total)
T3ED4 001:203 JLINK_WriteReg(PSP, 0x20001000)  returns 0x00 (0000ms, 0700ms total)
T3ED4 001:203 JLINK_WriteReg(CFBP, 0x00000000)  returns 0x00 (0000ms, 0700ms total)
T3ED4 001:203 JLINK_SetBPEx(Addr = 0x20000000, Type = 0xFFFFFFF2)  returns 0x00000009 (0000ms, 0700ms total)
T3ED4 001:203 JLINK_Go() (0001ms, 0701ms total)
T3ED4 001:204 JLINK_IsHalted()  returns FALSE (0000ms, 0701ms total)
T3ED4 001:206 JLINK_IsHalted()  returns FALSE (0000ms, 0701ms total)
T3ED4 001:208 JLINK_IsHalted()  returns FALSE (0000ms, 0701ms total)
T3ED4 001:211 JLINK_IsHalted()  returns FALSE (0000ms, 0701ms total)
T3ED4 001:213 JLINK_IsHalted()  returns FALSE (0000ms, 0701ms total)
T3ED4 001:215 JLINK_IsHalted()  returns FALSE (0000ms, 0701ms total)
T3ED4 001:217 JLINK_IsHalted()  returns FALSE (0000ms, 0701ms total)
T3ED4 001:219 JLINK_IsHalted()  returns FALSE (0000ms, 0701ms total)
T3ED4 001:221 JLINK_IsHalted()  returns FALSE (0000ms, 0701ms total)
T3ED4 001:225 JLINK_IsHalted()  returns FALSE (0000ms, 0701ms total)
T3ED4 001:227 JLINK_IsHalted()  returns FALSE (0000ms, 0701ms total)
T3ED4 001:229 JLINK_IsHalted()  returns FALSE (0000ms, 0701ms total)
T3ED4 001:231 JLINK_IsHalted()  returns FALSE (0000ms, 0701ms total)
T3ED4 001:233 JLINK_IsHalted()  returns FALSE (0000ms, 0701ms total)
T3ED4 001:235 JLINK_IsHalted() -- CPU_ReadMem(2 bytes @ 0x20000000)  returns TRUE (0002ms, 0703ms total)
T3ED4 001:237 JLINK_ReadReg(R15 (PC))  returns 0x20000000 (0000ms, 0701ms total)
T3ED4 001:237 JLINK_ClrBPEx(BPHandle = 0x00000009)  returns 0x00 (0000ms, 0701ms total)
T3ED4 001:237 JLINK_ReadReg(R0)  returns 0x00000000 (0000ms, 0701ms total)
T3ED4 001:238 JLINK_WriteMem(0x20000164, 0x0400 Bytes, ...) - Data: DF FB AA E1 59 48 02 68 7B 48 01 68 7D A0 03 F0 ... -- CPU_WriteMem(1024 bytes @ 0x20000164)  returns 0x400 (0004ms, 0705ms total)
T3ED4 001:242 JLINK_WriteReg(R0, 0x08001400)  returns 0x00 (0000ms, 0705ms total)
T3ED4 001:242 JLINK_WriteReg(R1, 0x00000400)  returns 0x00 (0000ms, 0705ms total)
T3ED4 001:242 JLINK_WriteReg(R2, 0x20000164)  returns 0x00 (0000ms, 0705ms total)
T3ED4 001:242 JLINK_WriteReg(R3, 0x00000000)  returns 0x00 (0000ms, 0705ms total)
T3ED4 001:242 JLINK_WriteReg(R4, 0x00000000)  returns 0x00 (0000ms, 0705ms total)
T3ED4 001:242 JLINK_WriteReg(R5, 0x00000000)  returns 0x00 (0000ms, 0705ms total)
T3ED4 001:242 JLINK_WriteReg(R6, 0x00000000)  returns 0x00 (0000ms, 0705ms total)
T3ED4 001:242 JLINK_WriteReg(R7, 0x00000000)  returns 0x00 (0000ms, 0705ms total)
T3ED4 001:242 JLINK_WriteReg(R8, 0x00000000)  returns 0x00 (0000ms, 0705ms total)
T3ED4 001:242 JLINK_WriteReg(R9, 0x20000160)  returns 0x00 (0000ms, 0705ms total)
T3ED4 001:242 JLINK_WriteReg(R10, 0x00000000)  returns 0x00 (0000ms, 0705ms total)
T3ED4 001:242 JLINK_WriteReg(R11, 0x00000000)  returns 0x00 (0000ms, 0705ms total)
T3ED4 001:242 JLINK_WriteReg(R12, 0x00000000)  returns 0x00 (0000ms, 0705ms total)
T3ED4 001:242 JLINK_WriteReg(R13 (SP), 0x20001000)  returns 0x00 (0000ms, 0705ms total)
T3ED4 001:242 JLINK_WriteReg(R14, 0x20000001)  returns 0x00 (0000ms, 0705ms total)
T3ED4 001:242 JLINK_WriteReg(R15 (PC), 0x200000F4)  returns 0x00 (0000ms, 0705ms total)
T3ED4 001:242 JLINK_WriteReg(XPSR, 0x01000000)  returns 0x00 (0001ms, 0706ms total)
T3ED4 001:243 JLINK_WriteReg(MSP, 0x20001000)  returns 0x00 (0000ms, 0706ms total)
T3ED4 001:243 JLINK_WriteReg(PSP, 0x20001000)  returns 0x00 (0000ms, 0706ms total)
T3ED4 001:243 JLINK_WriteReg(CFBP, 0x00000000)  returns 0x00 (0000ms, 0706ms total)
T3ED4 001:243 JLINK_SetBPEx(Addr = 0x20000000, Type = 0xFFFFFFF2)  returns 0x0000000A (0000ms, 0706ms total)
T3ED4 001:243 JLINK_Go() (0001ms, 0707ms total)
T3ED4 001:244 JLINK_IsHalted()  returns FALSE (0000ms, 0707ms total)
T3ED4 001:246 JLINK_IsHalted()  returns FALSE (0000ms, 0707ms total)
T3ED4 001:248 JLINK_IsHalted()  returns FALSE (0000ms, 0707ms total)
T3ED4 001:250 JLINK_IsHalted()  returns FALSE (0000ms, 0707ms total)
T3ED4 001:252 JLINK_IsHalted()  returns FALSE (0000ms, 0707ms total)
T3ED4 001:254 JLINK_IsHalted()  returns FALSE (0000ms, 0707ms total)
T3ED4 001:264 JLINK_IsHalted()  returns FALSE (0000ms, 0707ms total)
T3ED4 001:266 JLINK_IsHalted()  returns FALSE (0000ms, 0707ms total)
T3ED4 001:268 JLINK_IsHalted()  returns FALSE (0000ms, 0707ms total)
T3ED4 001:275 JLINK_IsHalted() -- CPU_ReadMem(2 bytes @ 0x20000000)  returns TRUE (0002ms, 0709ms total)
T3ED4 001:277 JLINK_ReadReg(R15 (PC))  returns 0x20000000 (0000ms, 0707ms total)
T3ED4 001:277 JLINK_ClrBPEx(BPHandle = 0x0000000A)  returns 0x00 (0000ms, 0707ms total)
T3ED4 001:277 JLINK_ReadReg(R0)  returns 0x00000000 (0000ms, 0707ms total)
T3ED4 001:278 JLINK_WriteMem(0x20000164, 0x0400 Bytes, ...) - Data: 00 88 40 F4 00 50 48 49 08 80 08 46 00 88 C0 F3 ... -- CPU_WriteMem(1024 bytes @ 0x20000164)  returns 0x400 (0004ms, 0711ms total)
T3ED4 001:282 JLINK_WriteReg(R0, 0x08001800)  returns 0x00 (0000ms, 0711ms total)
T3ED4 001:282 JLINK_WriteReg(R1, 0x00000400)  returns 0x00 (0000ms, 0711ms total)
T3ED4 001:282 JLINK_WriteReg(R2, 0x20000164)  returns 0x00 (0000ms, 0711ms total)
T3ED4 001:282 JLINK_WriteReg(R3, 0x00000000)  returns 0x00 (0000ms, 0711ms total)
T3ED4 001:282 JLINK_WriteReg(R4, 0x00000000)  returns 0x00 (0000ms, 0711ms total)
T3ED4 001:282 JLINK_WriteReg(R5, 0x00000000)  returns 0x00 (0000ms, 0711ms total)
T3ED4 001:282 JLINK_WriteReg(R6, 0x00000000)  returns 0x00 (0000ms, 0711ms total)
T3ED4 001:282 JLINK_WriteReg(R7, 0x00000000)  returns 0x00 (0000ms, 0711ms total)
T3ED4 001:282 JLINK_WriteReg(R8, 0x00000000)  returns 0x00 (0000ms, 0711ms total)
T3ED4 001:282 JLINK_WriteReg(R9, 0x20000160)  returns 0x00 (0000ms, 0711ms total)
T3ED4 001:283 JLINK_WriteReg(R10, 0x00000000)  returns 0x00 (0000ms, 0712ms total)
T3ED4 001:283 JLINK_WriteReg(R11, 0x00000000)  returns 0x00 (0000ms, 0712ms total)
T3ED4 001:283 JLINK_WriteReg(R12, 0x00000000)  returns 0x00 (0000ms, 0712ms total)
T3ED4 001:283 JLINK_WriteReg(R13 (SP), 0x20001000)  returns 0x00 (0000ms, 0712ms total)
T3ED4 001:283 JLINK_WriteReg(R14, 0x20000001)  returns 0x00 (0000ms, 0712ms total)
T3ED4 001:283 JLINK_WriteReg(R15 (PC), 0x200000F4)  returns 0x00 (0000ms, 0712ms total)
T3ED4 001:283 JLINK_WriteReg(XPSR, 0x01000000)  returns 0x00 (0000ms, 0712ms total)
T3ED4 001:283 JLINK_WriteReg(MSP, 0x20001000)  returns 0x00 (0000ms, 0712ms total)
T3ED4 001:283 JLINK_WriteReg(PSP, 0x20001000)  returns 0x00 (0000ms, 0712ms total)
T3ED4 001:283 JLINK_WriteReg(CFBP, 0x00000000)  returns 0x00 (0000ms, 0712ms total)
T3ED4 001:283 JLINK_SetBPEx(Addr = 0x20000000, Type = 0xFFFFFFF2)  returns 0x0000000B (0000ms, 0712ms total)
T3ED4 001:283 JLINK_Go() (0001ms, 0713ms total)
T3ED4 001:284 JLINK_IsHalted()  returns FALSE (0001ms, 0714ms total)
T3ED4 001:287 JLINK_IsHalted()  returns FALSE (0000ms, 0713ms total)
T3ED4 001:291 JLINK_IsHalted()  returns FALSE (0000ms, 0713ms total)
T3ED4 001:293 JLINK_IsHalted()  returns FALSE (0000ms, 0713ms total)
T3ED4 001:295 JLINK_IsHalted()  returns FALSE (0000ms, 0713ms total)
T3ED4 001:297 JLINK_IsHalted()  returns FALSE (0000ms, 0713ms total)
T3ED4 001:299 JLINK_IsHalted()  returns FALSE (0000ms, 0713ms total)
T3ED4 001:301 JLINK_IsHalted()  returns FALSE (0000ms, 0713ms total)
T3ED4 001:305 JLINK_IsHalted()  returns FALSE (0000ms, 0713ms total)
T3ED4 001:307 JLINK_IsHalted()  returns FALSE (0000ms, 0713ms total)
T3ED4 001:309 JLINK_IsHalted()  returns FALSE (0000ms, 0713ms total)
T3ED4 001:311 JLINK_IsHalted()  returns FALSE (0000ms, 0713ms total)
T3ED4 001:313 JLINK_IsHalted()  returns FALSE (0000ms, 0713ms total)
T3ED4 001:315 JLINK_IsHalted()  returns FALSE (0000ms, 0713ms total)
T3ED4 001:320 JLINK_IsHalted() -- CPU_ReadMem(2 bytes @ 0x20000000)  returns TRUE (0002ms, 0715ms total)
T3ED4 001:322 JLINK_ReadReg(R15 (PC))  returns 0x20000000 (0000ms, 0713ms total)
T3ED4 001:322 JLINK_ClrBPEx(BPHandle = 0x0000000B)  returns 0x00 (0000ms, 0713ms total)
T3ED4 001:322 JLINK_ReadReg(R0)  returns 0x00000000 (0000ms, 0713ms total)
T3ED4 001:323 JLINK_WriteMem(0x20000164, 0x0400 Bytes, ...) - Data: AE 48 84 42 07 D1 01 21 80 15 00 F0 E5 FA 00 21 ... -- CPU_WriteMem(1024 bytes @ 0x20000164)  returns 0x400 (0004ms, 0717ms total)
T3ED4 001:327 JLINK_WriteReg(R0, 0x08001C00)  returns 0x00 (0000ms, 0717ms total)
T3ED4 001:327 JLINK_WriteReg(R1, 0x00000400)  returns 0x00 (0000ms, 0717ms total)
T3ED4 001:327 JLINK_WriteReg(R2, 0x20000164)  returns 0x00 (0000ms, 0717ms total)
T3ED4 001:327 JLINK_WriteReg(R3, 0x00000000)  returns 0x00 (0000ms, 0717ms total)
T3ED4 001:327 JLINK_WriteReg(R4, 0x00000000)  returns 0x00 (0000ms, 0717ms total)
T3ED4 001:327 JLINK_WriteReg(R5, 0x00000000)  returns 0x00 (0000ms, 0717ms total)
T3ED4 001:327 JLINK_WriteReg(R6, 0x00000000)  returns 0x00 (0000ms, 0717ms total)
T3ED4 001:327 JLINK_WriteReg(R7, 0x00000000)  returns 0x00 (0000ms, 0717ms total)
T3ED4 001:327 JLINK_WriteReg(R8, 0x00000000)  returns 0x00 (0000ms, 0717ms total)
T3ED4 001:327 JLINK_WriteReg(R9, 0x20000160)  returns 0x00 (0000ms, 0717ms total)
T3ED4 001:327 JLINK_WriteReg(R10, 0x00000000)  returns 0x00 (0000ms, 0717ms total)
T3ED4 001:327 JLINK_WriteReg(R11, 0x00000000)  returns 0x00 (0000ms, 0717ms total)
T3ED4 001:327 JLINK_WriteReg(R12, 0x00000000)  returns 0x00 (0000ms, 0717ms total)
T3ED4 001:327 JLINK_WriteReg(R13 (SP), 0x20001000)  returns 0x00 (0000ms, 0717ms total)
T3ED4 001:327 JLINK_WriteReg(R14, 0x20000001)  returns 0x00 (0000ms, 0717ms total)
T3ED4 001:327 JLINK_WriteReg(R15 (PC), 0x200000F4)  returns 0x00 (0000ms, 0717ms total)
T3ED4 001:327 JLINK_WriteReg(XPSR, 0x01000000)  returns 0x00 (0000ms, 0717ms total)
T3ED4 001:327 JLINK_WriteReg(MSP, 0x20001000)  returns 0x00 (0000ms, 0717ms total)
T3ED4 001:327 JLINK_WriteReg(PSP, 0x20001000)  returns 0x00 (0000ms, 0717ms total)
T3ED4 001:327 JLINK_WriteReg(CFBP, 0x00000000)  returns 0x00 (0000ms, 0717ms total)
T3ED4 001:327 JLINK_SetBPEx(Addr = 0x20000000, Type = 0xFFFFFFF2)  returns 0x0000000C (0000ms, 0717ms total)
T3ED4 001:327 JLINK_Go() (0001ms, 0718ms total)
T3ED4 001:328 JLINK_IsHalted()  returns FALSE (0001ms, 0719ms total)
T3ED4 001:331 JLINK_IsHalted()  returns FALSE (0000ms, 0718ms total)
T3ED4 001:339 JLINK_IsHalted()  returns FALSE (0000ms, 0718ms total)
T3ED4 001:341 JLINK_IsHalted()  returns FALSE (0000ms, 0718ms total)
T3ED4 001:343 JLINK_IsHalted()  returns FALSE (0000ms, 0718ms total)
T3ED4 001:345 JLINK_IsHalted()  returns FALSE (0000ms, 0718ms total)
T3ED4 001:347 JLINK_IsHalted()  returns FALSE (0000ms, 0718ms total)
T3ED4 001:349 JLINK_IsHalted()  returns FALSE (0000ms, 0718ms total)
T3ED4 001:351 JLINK_IsHalted()  returns FALSE (0000ms, 0718ms total)
T3ED4 001:353 JLINK_IsHalted()  returns FALSE (0000ms, 0718ms total)
T3ED4 001:356 JLINK_IsHalted()  returns FALSE (0000ms, 0718ms total)
T3ED4 001:358 JLINK_IsHalted()  returns FALSE (0000ms, 0718ms total)
T3ED4 001:360 JLINK_IsHalted() -- CPU_ReadMem(2 bytes @ 0x20000000)  returns TRUE (0002ms, 0720ms total)
T3ED4 001:362 JLINK_ReadReg(R15 (PC))  returns 0x20000000 (0000ms, 0718ms total)
T3ED4 001:362 JLINK_ClrBPEx(BPHandle = 0x0000000C)  returns 0x00 (0000ms, 0718ms total)
T3ED4 001:362 JLINK_ReadReg(R0)  returns 0x00000000 (0000ms, 0718ms total)
T3ED4 001:363 JLINK_WriteMem(0x20000164, 0x0400 Bytes, ...) - Data: 03 00 08 43 50 60 70 47 8F 48 40 68 00 F0 0C 00 ... -- CPU_WriteMem(1024 bytes @ 0x20000164)  returns 0x400 (0004ms, 0722ms total)
T3ED4 001:367 JLINK_WriteReg(R0, 0x08002000)  returns 0x00 (0000ms, 0722ms total)
T3ED4 001:367 JLINK_WriteReg(R1, 0x00000400)  returns 0x00 (0000ms, 0722ms total)
T3ED4 001:367 JLINK_WriteReg(R2, 0x20000164)  returns 0x00 (0000ms, 0722ms total)
T3ED4 001:367 JLINK_WriteReg(R3, 0x00000000)  returns 0x00 (0000ms, 0722ms total)
T3ED4 001:367 JLINK_WriteReg(R4, 0x00000000)  returns 0x00 (0000ms, 0722ms total)
T3ED4 001:367 JLINK_WriteReg(R5, 0x00000000)  returns 0x00 (0000ms, 0722ms total)
T3ED4 001:367 JLINK_WriteReg(R6, 0x00000000)  returns 0x00 (0000ms, 0722ms total)
T3ED4 001:367 JLINK_WriteReg(R7, 0x00000000)  returns 0x00 (0000ms, 0722ms total)
T3ED4 001:367 JLINK_WriteReg(R8, 0x00000000)  returns 0x00 (0000ms, 0722ms total)
T3ED4 001:367 JLINK_WriteReg(R9, 0x20000160)  returns 0x00 (0000ms, 0722ms total)
T3ED4 001:367 JLINK_WriteReg(R10, 0x00000000)  returns 0x00 (0000ms, 0722ms total)
T3ED4 001:367 JLINK_WriteReg(R11, 0x00000000)  returns 0x00 (0000ms, 0722ms total)
T3ED4 001:367 JLINK_WriteReg(R12, 0x00000000)  returns 0x00 (0000ms, 0722ms total)
T3ED4 001:367 JLINK_WriteReg(R13 (SP), 0x20001000)  returns 0x00 (0000ms, 0722ms total)
T3ED4 001:367 JLINK_WriteReg(R14, 0x20000001)  returns 0x00 (0000ms, 0722ms total)
T3ED4 001:367 JLINK_WriteReg(R15 (PC), 0x200000F4)  returns 0x00 (0000ms, 0722ms total)
T3ED4 001:367 JLINK_WriteReg(XPSR, 0x01000000)  returns 0x00 (0000ms, 0722ms total)
T3ED4 001:367 JLINK_WriteReg(MSP, 0x20001000)  returns 0x00 (0000ms, 0722ms total)
T3ED4 001:367 JLINK_WriteReg(PSP, 0x20001000)  returns 0x00 (0000ms, 0722ms total)
T3ED4 001:367 JLINK_WriteReg(CFBP, 0x00000000)  returns 0x00 (0000ms, 0722ms total)
T3ED4 001:367 JLINK_SetBPEx(Addr = 0x20000000, Type = 0xFFFFFFF2)  returns 0x0000000D (0000ms, 0722ms total)
T3ED4 001:367 JLINK_Go() (0002ms, 0724ms total)
T3ED4 001:369 JLINK_IsHalted()  returns FALSE (0000ms, 0724ms total)
T3ED4 001:387 JLINK_IsHalted()  returns FALSE (0000ms, 0724ms total)
T3ED4 001:389 JLINK_IsHalted()  returns FALSE (0000ms, 0724ms total)
T3ED4 001:391 JLINK_IsHalted()  returns FALSE (0000ms, 0724ms total)
T3ED4 001:393 JLINK_IsHalted()  returns FALSE (0000ms, 0724ms total)
T3ED4 001:397 JLINK_IsHalted()  returns FALSE (0000ms, 0724ms total)
T3ED4 001:399 JLINK_IsHalted()  returns FALSE (0000ms, 0724ms total)
T3ED4 001:401 JLINK_IsHalted() -- CPU_ReadMem(2 bytes @ 0x20000000)  returns TRUE (0002ms, 0726ms total)
T3ED4 001:403 JLINK_ReadReg(R15 (PC))  returns 0x20000000 (0000ms, 0724ms total)
T3ED4 001:403 JLINK_ClrBPEx(BPHandle = 0x0000000D)  returns 0x00 (0000ms, 0724ms total)
T3ED4 001:403 JLINK_ReadReg(R0)  returns 0x00000000 (0000ms, 0724ms total)
T3ED4 001:404 JLINK_WriteMem(0x20000164, 0x0400 Bytes, ...) - Data: 01 21 88 04 FF F7 E8 FE 00 21 4F F4 80 20 FF F7 ... -- CPU_WriteMem(1024 bytes @ 0x20000164)  returns 0x400 (0004ms, 0728ms total)
T3ED4 001:408 JLINK_WriteReg(R0, 0x08002400)  returns 0x00 (0000ms, 0728ms total)
T3ED4 001:408 JLINK_WriteReg(R1, 0x00000400)  returns 0x00 (0000ms, 0728ms total)
T3ED4 001:408 JLINK_WriteReg(R2, 0x20000164)  returns 0x00 (0000ms, 0728ms total)
T3ED4 001:408 JLINK_WriteReg(R3, 0x00000000)  returns 0x00 (0000ms, 0728ms total)
T3ED4 001:408 JLINK_WriteReg(R4, 0x00000000)  returns 0x00 (0000ms, 0728ms total)
T3ED4 001:408 JLINK_WriteReg(R5, 0x00000000)  returns 0x00 (0000ms, 0728ms total)
T3ED4 001:408 JLINK_WriteReg(R6, 0x00000000)  returns 0x00 (0000ms, 0728ms total)
T3ED4 001:408 JLINK_WriteReg(R7, 0x00000000)  returns 0x00 (0000ms, 0728ms total)
T3ED4 001:408 JLINK_WriteReg(R8, 0x00000000)  returns 0x00 (0000ms, 0728ms total)
T3ED4 001:408 JLINK_WriteReg(R9, 0x20000160)  returns 0x00 (0000ms, 0728ms total)
T3ED4 001:408 JLINK_WriteReg(R10, 0x00000000)  returns 0x00 (0000ms, 0728ms total)
T3ED4 001:408 JLINK_WriteReg(R11, 0x00000000)  returns 0x00 (0000ms, 0728ms total)
T3ED4 001:408 JLINK_WriteReg(R12, 0x00000000)  returns 0x00 (0000ms, 0728ms total)
T3ED4 001:408 JLINK_WriteReg(R13 (SP), 0x20001000)  returns 0x00 (0000ms, 0728ms total)
T3ED4 001:408 JLINK_WriteReg(R14, 0x20000001)  returns 0x00 (0000ms, 0728ms total)
T3ED4 001:408 JLINK_WriteReg(R15 (PC), 0x200000F4)  returns 0x00 (0000ms, 0728ms total)
T3ED4 001:408 JLINK_WriteReg(XPSR, 0x01000000)  returns 0x00 (0000ms, 0728ms total)
T3ED4 001:408 JLINK_WriteReg(MSP, 0x20001000)  returns 0x00 (0000ms, 0728ms total)
T3ED4 001:408 JLINK_WriteReg(PSP, 0x20001000)  returns 0x00 (0000ms, 0728ms total)
T3ED4 001:408 JLINK_WriteReg(CFBP, 0x00000000)  returns 0x00 (0001ms, 0729ms total)
T3ED4 001:409 JLINK_SetBPEx(Addr = 0x20000000, Type = 0xFFFFFFF2)  returns 0x0000000E (0000ms, 0729ms total)
T3ED4 001:409 JLINK_Go() (0001ms, 0730ms total)
T3ED4 001:410 JLINK_IsHalted()  returns FALSE (0000ms, 0730ms total)
T3ED4 001:413 JLINK_IsHalted()  returns FALSE (0000ms, 0730ms total)
T3ED4 001:415 JLINK_IsHalted()  returns FALSE (0000ms, 0730ms total)
T3ED4 001:417 JLINK_IsHalted()  returns FALSE (0000ms, 0730ms total)
T3ED4 001:419 JLINK_IsHalted()  returns FALSE (0000ms, 0730ms total)
T3ED4 001:421 JLINK_IsHalted()  returns FALSE (0000ms, 0730ms total)
T3ED4 001:423 JLINK_IsHalted()  returns FALSE (0000ms, 0730ms total)
T3ED4 001:425 JLINK_IsHalted()  returns FALSE (0000ms, 0730ms total)
T3ED4 001:427 JLINK_IsHalted()  returns FALSE (0000ms, 0730ms total)
T3ED4 001:429 JLINK_IsHalted()  returns FALSE (0000ms, 0730ms total)
T3ED4 001:433 JLINK_IsHalted()  returns FALSE (0000ms, 0730ms total)
T3ED4 001:435 JLINK_IsHalted()  returns FALSE (0000ms, 0730ms total)
T3ED4 001:437 JLINK_IsHalted()  returns FALSE (0000ms, 0730ms total)
T3ED4 001:439 JLINK_IsHalted()  returns FALSE (0000ms, 0730ms total)
T3ED4 001:441 JLINK_IsHalted() -- CPU_ReadMem(2 bytes @ 0x20000000)  returns TRUE (0002ms, 0732ms total)
T3ED4 001:443 JLINK_ReadReg(R15 (PC))  returns 0x20000000 (0000ms, 0730ms total)
T3ED4 001:443 JLINK_ClrBPEx(BPHandle = 0x0000000E)  returns 0x00 (0000ms, 0730ms total)
T3ED4 001:443 JLINK_ReadReg(R0)  returns 0x00000000 (0000ms, 0730ms total)
